Sample in Buffer	Sample in Window	arbmux_dout	arbmux_val	valid	start	end
0	0	00000000	0	0	0	0	
1	1	00000000	0	0	0	0	
2	2	00000000	0	0	0	0	
3	3	00000000	0	0	0	0	
4	4	00000000	0	0	0	0	
5	5	00000000	0	0	0	0	
6	6	00000000	0	0	0	0	
7	7	00000000	0	0	0	0	
8	8	00000000	0	0	0	0	
9	9	00000000	0	0	0	0	
10	10	00000000	0	0	0	0	
11	11	00000000	0	0	0	0	
12	12	00000000	0	0	0	0	
13	13	00000000	0	0	0	0	
14	14	00000000	0	0	0	0	
15	15	00000000	0	0	0	0	
16	16	00000000	0	0	0	0	
17	17	00000000	0	0	0	0	
18	18	00000000	0	0	0	0	
19	19	00000000	0	0	0	0	
20	20	00000000	0	0	0	0	
21	21	00000000	0	0	0	0	
22	22	00000000	0	0	0	0	
23	23	00000000	0	0	0	0	
24	24	00000000	0	0	0	0	
25	25	00000000	0	0	0	0	
26	26	00000000	0	0	0	0	
27	27	00000000	0	0	0	0	
28	28	00000000	0	0	0	0	
29	29	00000000	0	0	0	0	
30	30	00000000	0	0	0	0	
31	31	00000000	0	0	0	0	
32	32	00000000	0	0	0	0	
33	33	00000000	0	0	0	0	
34	34	00000000	0	0	0	0	
35	35	00000000	0	0	0	0	
36	36	00000000	0	0	0	0	
37	37	00000000	0	0	0	0	
38	38	00000000	0	0	0	0	
39	39	00000000	0	0	0	0	
40	40	00000000	0	0	0	0	
41	41	00000000	0	0	0	0	
42	42	00000000	0	0	0	0	
43	43	00000000	0	0	0	0	
44	44	00000000	0	0	0	0	
45	45	00000000	0	0	0	0	
46	46	00000000	0	0	0	0	
47	47	00000000	0	0	0	0	
48	48	00000000	0	0	0	0	
49	49	00000000	0	0	0	0	
50	50	00000000	0	0	0	0	
51	51	00000000	0	0	0	0	
52	52	00000000	0	0	0	0	
53	53	00000000	0	0	0	0	
54	54	00000000	0	0	0	0	
55	55	00000000	0	0	0	0	
56	56	00000000	0	0	0	0	
57	57	00000000	0	0	0	0	
58	58	00000000	0	0	0	0	
59	59	00000000	0	0	0	0	
60	60	00000000	0	0	0	0	
61	61	00000000	0	0	0	0	
62	62	00000000	0	0	0	0	
63	63	00000000	0	0	0	0	
64	64	00000000	0	0	0	0	
65	65	00000000	0	0	0	0	
66	66	00000000	0	0	0	0	
67	67	00000000	0	0	0	0	
68	68	00000000	0	0	0	0	
69	69	00000000	0	0	0	0	
70	70	00000000	0	0	0	0	
71	71	00000000	0	0	0	0	
72	72	00000000	0	0	0	0	
73	73	00000000	0	0	0	0	
74	74	00000000	0	0	0	0	
75	75	00000000	0	0	0	0	
76	76	00000000	0	0	0	0	
77	77	00000000	0	0	0	0	
78	78	00000000	0	0	0	0	
79	79	00000000	0	0	0	0	
80	80	00000000	0	0	0	0	
81	81	00000000	0	0	0	0	
82	82	00000000	0	0	0	0	
83	83	00000000	0	0	0	0	
84	84	00000000	0	0	0	0	
85	85	00000000	0	0	0	0	
86	86	00000000	0	0	0	0	
87	87	00000000	0	0	0	0	
88	88	00000000	0	0	0	0	
89	89	00000000	0	0	0	0	
90	90	00000000	0	0	0	0	
91	91	00000000	0	0	0	0	
92	92	00000000	0	0	0	0	
93	93	00000000	0	0	0	0	
94	94	00000000	0	0	0	0	
95	95	00000000	0	0	0	0	
96	96	00000000	0	0	0	0	
97	97	00000000	0	0	0	0	
98	98	00000000	0	0	0	0	
99	99	00000000	0	0	0	0	
100	100	00000000	0	1	1	0	
101	101	00000000	0	1	0	0	
102	102	00000000	0	1	0	0	
103	103	00000000	0	1	0	0	
104	104	00000000	0	1	0	0	
105	105	00000000	0	1	0	0	
106	106	00000000	0	1	0	0	
107	107	00000000	0	1	0	0	
108	108	00000000	0	1	0	0	
109	109	00000000	0	1	0	0	
110	110	00000000	0	1	0	0	
111	111	00000000	0	1	0	0	
112	112	00000000	0	1	0	0	
113	113	00000000	0	1	0	0	
114	114	00000000	0	1	0	0	
115	115	00000000	0	1	0	0	
116	116	00000000	0	1	0	0	
117	117	00000000	0	1	0	0	
118	118	00000000	0	1	0	0	
119	119	00000000	0	1	0	0	
120	120	3F2F8092	1	1	0	0	
121	121	3F2F8092	0	1	0	0	
122	122	00000000	0	1	0	0	
123	123	00000000	0	1	0	0	
124	124	00000000	0	1	0	0	
125	125	3F2F8092	0	1	0	0	
126	126	00000000	0	1	0	0	
127	127	00000000	0	1	0	0	
128	128	00000000	0	1	0	0	
129	129	3F2F8092	0	1	0	0	
130	130	00000000	0	1	0	0	
131	131	00000000	0	1	0	0	
132	132	00000000	0	1	0	0	
133	133	3F2F8092	0	1	0	0	
134	134	00000000	0	1	0	0	
135	135	00000000	0	1	0	0	
136	136	00000000	0	1	0	0	
137	137	3F2F8092	0	1	0	0	
138	138	00000000	0	1	0	0	
139	139	00000000	0	1	0	0	
140	140	00000000	0	1	0	0	
141	141	3F2F8092	0	1	0	0	
142	142	00000000	0	1	0	0	
143	143	00000000	0	1	0	0	
144	144	00000000	0	1	0	0	
145	145	3F2F8092	0	1	0	0	
146	146	00000000	0	1	0	0	
147	147	00000000	0	1	0	0	
148	148	00000000	0	1	0	0	
149	149	3F2F8092	0	1	0	0	
150	150	00000000	0	1	0	0	
151	151	00000000	0	1	0	0	
152	152	00000000	0	1	0	0	
153	153	3F2F8092	0	1	0	0	
154	154	00000000	0	1	0	0	
155	155	00000000	0	1	0	0	
156	156	00000000	0	1	0	0	
157	157	3F2F8092	0	1	0	0	
158	158	00000000	0	1	0	0	
159	159	00000000	0	1	0	0	
160	160	00000000	0	1	0	0	
161	161	3F2F8092	0	1	0	0	
162	162	00000000	0	1	0	0	
163	163	00000000	0	1	0	0	
164	164	00000000	0	1	0	0	
165	165	3F2F8092	0	1	0	0	
166	166	00000000	0	1	0	0	
167	167	00000000	0	1	0	0	
168	168	00000000	0	1	0	0	
169	169	3F2F8092	0	1	0	0	
170	170	00000000	0	1	0	0	
171	171	00000000	0	1	0	0	
172	172	00000000	0	1	0	0	
173	173	3F2F8092	0	1	0	0	
174	174	00000000	0	1	0	0	
175	175	00000000	0	1	0	0	
176	176	00000000	0	1	0	0	
177	177	3F2F8092	0	1	0	0	
178	178	00000000	0	1	0	0	
179	179	00000000	0	1	0	0	
180	180	00000000	0	1	0	0	
181	181	3F2F8092	0	1	0	0	
182	182	00000000	0	1	0	0	
183	183	00000000	0	1	0	0	
184	184	00000000	0	1	0	0	
185	185	3F2F8092	0	1	0	0	
186	186	00000000	0	1	0	0	
187	187	00000000	0	1	0	0	
188	188	00000000	0	1	0	0	
189	189	3F2F8092	0	1	0	0	
190	190	00000000	0	1	0	0	
191	191	00000000	0	1	0	0	
192	192	00000000	0	1	0	0	
193	193	3F2F8092	0	1	0	0	
194	194	00000000	0	1	0	0	
195	195	00000000	0	1	0	0	
196	196	00000000	0	1	0	0	
197	197	3F2F8092	0	1	0	0	
198	198	00000000	0	1	0	0	
199	199	00000000	0	1	0	0	
200	200	00000000	0	1	0	0	
201	201	3F2F8092	0	1	0	0	
202	202	00000000	0	1	0	0	
203	203	00000000	0	1	0	0	
204	204	00000000	0	1	0	0	
205	205	3F2F0091	1	1	0	0	
206	206	3F2F0091	0	1	0	0	
207	207	00000000	0	1	0	0	
208	208	00000000	0	1	0	0	
209	209	00000000	0	1	0	0	
210	210	3F2F0091	0	1	0	0	
211	211	00000000	0	1	0	0	
212	212	00000000	0	1	0	0	
213	213	00000000	0	1	0	0	
214	214	3F2F0091	0	1	0	0	
215	215	00000000	0	1	0	0	
216	216	00000000	0	1	0	0	
217	217	00000000	0	1	0	0	
218	218	3F2F0091	0	1	0	0	
219	219	00000000	0	1	0	0	
220	220	00000000	0	1	0	0	
221	221	00000000	0	1	0	0	
222	222	3F2F0093	1	1	0	0	
223	223	3F2F0093	0	1	0	0	
224	224	00000000	0	1	0	0	
225	225	00000000	0	1	0	0	
226	226	00000000	0	1	0	0	
227	227	3F2F0093	0	1	0	0	
228	228	00000000	0	1	0	0	
229	229	00000000	0	1	0	0	
230	230	00000000	0	1	0	0	
231	231	3F2F0093	0	1	0	0	
232	232	00000000	0	1	0	0	
233	233	00000000	0	1	0	0	
234	234	00000000	0	1	0	0	
235	235	3F2F0093	0	1	0	0	
236	236	00000000	0	1	0	0	
237	237	00000000	0	1	0	0	
238	238	00000000	0	1	0	0	
239	239	3F2F0093	0	1	0	0	
240	240	00000000	0	1	0	0	
241	241	00000000	0	1	0	0	
242	242	00000000	0	1	0	0	
243	243	3F2F0093	0	1	0	0	
244	244	00000000	0	1	0	0	
245	245	00000000	0	1	0	0	
246	246	00000000	0	1	0	0	
247	247	3F2F0093	0	1	0	0	
248	248	00000000	0	1	0	0	
249	249	00000000	0	1	0	0	
250	250	00000000	0	1	0	0	
251	251	3F2F0093	0	1	0	0	
252	252	00000000	0	1	0	0	
253	253	00000000	0	1	0	0	
254	254	00000000	0	1	0	0	
255	255	3F2F0093	0	1	0	0	
256	256	00000000	0	1	0	0	
257	257	00000000	0	1	0	0	
258	258	00000000	0	1	0	0	
259	259	3F2F0093	0	1	0	0	
260	260	00000000	0	1	0	0	
261	261	00000000	0	1	0	0	
262	262	00000000	0	1	0	0	
263	263	3F2F0093	0	1	0	0	
264	264	00000000	0	1	0	0	
265	265	00000000	0	1	0	0	
266	266	00000000	0	1	0	0	
267	267	3F2F0093	0	1	0	0	
268	268	00000000	0	1	0	0	
269	269	00000000	0	1	0	0	
270	270	00000000	0	1	0	0	
271	271	3F2F0093	0	1	0	0	
272	272	00000000	0	1	0	0	
273	273	00000000	0	1	0	0	
274	274	00000000	0	1	0	0	
275	275	3F2F0093	0	1	0	0	
276	276	00000000	0	1	0	0	
277	277	00000000	0	1	0	0	
278	278	00000000	0	1	0	0	
279	279	3F2F0093	0	1	0	0	
280	280	00000000	0	1	0	0	
281	281	00000000	0	1	0	0	
282	282	00000000	0	1	0	0	
283	283	3F2F0093	0	1	0	0	
284	284	00000000	0	1	0	0	
285	285	00000000	0	1	0	0	
286	286	00000000	0	1	0	0	
287	287	3F2F0093	0	1	0	0	
288	288	00000000	0	1	0	0	
289	289	00000000	0	1	0	0	
290	290	00000000	0	1	0	0	
291	291	3F2F0093	0	1	0	0	
292	292	00000000	0	1	0	0	
293	293	00000000	0	1	0	0	
294	294	00000000	0	1	0	0	
295	295	3F2F0093	0	1	0	0	
296	296	00000000	0	1	0	0	
297	297	00000000	0	1	0	0	
298	298	00000000	0	1	0	0	
299	299	3F2F0093	0	1	0	0	
300	300	00000000	0	1	0	0	
301	301	00000000	0	1	0	0	
302	302	00000000	0	1	0	0	
303	303	3F2F0093	0	1	0	0	
304	304	00000000	0	1	0	0	
305	305	00000000	0	1	0	0	
306	306	00000000	0	1	0	0	
307	307	3F2F0093	0	1	0	0	
308	308	00000000	0	1	0	0	
309	309	00000000	0	1	0	0	
310	310	00000000	0	1	0	0	
311	311	3F2F0094	1	1	0	0	
312	312	3F2F0094	0	1	0	0	
313	313	00000000	0	1	0	0	
314	314	00000000	0	1	0	0	
315	315	00000000	0	1	0	0	
316	316	3F2F0094	0	1	0	0	
317	317	00000000	0	1	0	0	
318	318	00000000	0	1	0	0	
319	319	00000000	0	1	0	0	
320	320	3F2F0094	0	1	0	0	
321	321	00000000	0	1	0	0	
322	322	00000000	0	1	0	0	
323	323	00000000	0	1	0	0	
324	324	3F2F0094	0	1	0	0	
325	325	00000000	0	1	0	0	
326	326	00000000	0	1	0	0	
327	327	00000000	0	1	0	0	
328	328	3F2F0097	1	1	0	0	
329	329	3F2F0097	0	1	0	0	
330	330	00000000	0	1	0	0	
331	331	00000000	0	1	0	0	
332	332	00000000	0	1	0	0	
333	333	3F2F0097	0	1	0	0	
334	334	00000000	0	1	0	0	
335	335	00000000	0	1	0	0	
336	336	00000000	0	1	0	0	
337	337	3F2F0097	0	1	0	0	
338	338	00000000	0	1	0	0	
339	339	00000000	0	1	0	0	
340	340	00000000	0	1	0	0	
341	341	3F2F0097	0	1	0	0	
342	342	00000000	0	1	0	0	
343	343	00000000	0	1	0	0	
344	344	00000000	0	1	0	0	
345	345	3F2F0097	0	1	0	0	
346	346	00000000	0	1	0	0	
347	347	00000000	0	1	0	0	
348	348	00000000	0	1	0	0	
349	349	3F2F0097	0	1	0	0	
350	350	00000000	0	1	0	0	
351	351	00000000	0	1	0	0	
352	352	00000000	0	1	0	0	
353	353	3F2F0097	0	1	0	0	
354	354	00000000	0	1	0	0	
355	355	00000000	0	1	0	0	
356	356	00000000	0	1	0	0	
357	357	3F2F00DD	1	1	0	0	
358	358	3F2F00DD	0	1	0	0	
359	359	00000000	0	1	0	0	
360	360	00000000	0	1	0	0	
361	361	00000000	0	1	0	0	
362	362	3F2F00DD	0	1	0	0	
363	363	00000000	0	1	0	0	
364	364	00000000	0	1	0	0	
365	365	00000000	0	1	0	0	
366	366	3F2F00DD	0	1	0	0	
367	367	00000000	0	1	0	0	
368	368	00000000	0	1	0	0	
369	369	00000000	0	1	0	0	
370	370	3F2F00DD	0	1	0	0	
371	371	00000000	0	1	0	0	
372	372	00000000	0	1	0	0	
373	373	00000000	0	1	0	0	
374	374	3F2F00DD	0	1	0	0	
375	375	00000000	0	1	0	0	
376	376	00000000	0	1	0	0	
377	377	00000000	0	1	0	0	
378	378	3F2F00DD	0	1	0	0	
379	379	00000000	0	1	0	0	
380	380	00000000	0	1	0	0	
381	381	00000000	0	1	0	0	
382	382	3F2F00DD	0	1	0	0	
383	383	00000000	0	1	0	0	
384	384	00000000	0	1	0	0	
385	385	00000000	0	1	0	0	
386	386	3F2F00DD	0	1	0	0	
387	387	00000000	0	1	0	0	
388	388	00000000	0	1	0	0	
389	389	00000000	0	1	0	0	
390	390	3F2F00DD	0	1	0	0	
391	391	00000000	0	1	0	0	
392	392	00000000	0	1	0	0	
393	393	00000000	0	1	0	0	
394	394	3F2F00DD	0	1	0	0	
395	395	00000000	0	1	0	0	
396	396	00000000	0	1	0	0	
397	397	00000000	0	1	0	0	
398	398	3F2F00DD	0	1	0	0	
399	399	00000000	0	1	0	0	
400	400	00000000	0	1	0	0	
401	401	00000000	0	1	0	0	
402	402	3F2F0095	1	1	0	0	
403	403	3F2F0095	0	1	0	0	
404	404	00000000	0	1	0	0	
405	405	00000000	0	1	0	0	
406	406	00000000	0	1	0	0	
407	407	3F2F0095	0	1	0	0	
408	408	00000000	0	1	0	0	
409	409	00000000	0	1	0	0	
410	410	00000000	0	1	0	0	
411	411	3F2F0095	0	1	0	0	
412	412	00000000	0	1	0	0	
413	413	00000000	0	1	0	0	
414	414	00000000	0	1	0	0	
415	415	3F2F0095	0	1	0	0	
416	416	00000000	0	1	0	0	
417	417	00000000	0	1	0	0	
418	418	00000000	0	1	0	0	
419	419	3F2F0096	1	1	0	0	
420	420	3F2F0096	0	1	0	0	
421	421	00000000	0	1	0	0	
422	422	00000000	0	1	0	0	
423	423	00000000	0	1	0	0	
424	424	3F2F0096	0	1	0	0	
425	425	00000000	0	1	0	0	
426	426	00000000	0	1	0	0	
427	427	00000000	0	1	0	0	
428	428	3F2F0096	0	1	0	0	
429	429	00000000	0	1	0	0	
430	430	00000000	0	1	0	0	
431	431	00000000	0	1	0	0	
432	432	3F2F0096	0	1	0	0	
433	433	00000000	0	1	0	0	
434	434	00000000	0	1	0	0	
435	435	00000000	0	1	0	0	
436	436	3F2F008A	1	1	0	0	
437	437	3F2F008A	0	1	0	0	
438	438	00000000	0	1	0	0	
439	439	00000000	0	1	0	0	
440	440	00000000	0	1	0	0	
441	441	3F2F008A	0	1	0	0	
442	442	00000000	0	1	0	0	
443	443	00000000	0	1	0	0	
444	444	00000000	0	1	0	0	
445	445	3F2F008A	0	1	0	0	
446	446	00000000	0	1	0	0	
447	447	00000000	0	1	0	0	
448	448	00000000	0	1	0	0	
449	449	3F2F008A	0	1	0	0	
450	450	00000000	0	1	0	0	
451	451	00000000	0	1	0	0	
452	452	00000000	0	1	0	0	
453	453	3F2F008A	0	1	0	0	
454	454	00000000	0	1	0	0	
455	455	00000000	0	1	0	0	
456	456	00000000	0	1	0	0	
457	457	3F2F008A	0	1	0	0	
458	458	00000000	0	1	0	0	
459	459	00000000	0	1	0	0	
460	460	00000000	0	1	0	0	
461	461	3F2F008A	0	1	0	0	
462	462	00000000	0	1	0	0	
463	463	00000000	0	1	0	0	
464	464	00000000	0	1	0	0	
465	465	3F2F008A	0	1	0	0	
466	466	00000000	0	1	0	0	
467	467	00000000	0	1	0	0	
468	468	00000000	0	1	0	0	
469	469	3F2F008A	0	1	0	0	
470	470	00000000	0	1	0	0	
471	471	00000000	0	1	0	0	
472	472	00000000	0	1	0	0	
473	473	3F2F008A	0	1	0	0	
474	474	00000000	0	1	0	0	
475	475	00000000	0	1	0	0	
476	476	00000000	0	1	0	0	
477	477	3F2F008A	0	1	0	0	
478	478	00000000	0	1	0	0	
479	479	00000000	0	1	0	0	
480	480	00000000	0	1	0	0	
481	481	3F2F008A	0	1	0	0	
482	482	00000000	0	1	0	0	
483	483	00000000	0	1	0	0	
484	484	00000000	0	1	0	0	
485	485	3F2F008A	0	1	0	0	
486	486	00000000	0	1	0	0	
487	487	00000000	0	1	0	0	
488	488	00000000	0	1	0	0	
489	489	3F2F008A	0	1	0	0	
490	490	00000000	0	1	0	0	
491	491	00000000	0	1	0	0	
492	492	00000000	0	1	0	0	
493	493	3F2F008A	0	1	0	0	
494	494	00000000	0	1	0	0	
495	495	00000000	0	1	0	0	
496	496	00000000	0	1	0	0	
497	497	3F2F008A	0	1	0	0	
498	498	00000000	0	1	0	0	
499	499	00000000	0	1	0	0	
500	500	00000000	0	1	0	0	
501	501	3F2F008A	0	1	0	0	
502	502	00000000	0	1	0	0	
503	503	00000000	0	1	0	0	
504	504	00000000	0	1	0	0	
505	505	3F2F008A	0	1	0	0	
506	506	00000000	0	1	0	0	
507	507	00000000	0	1	0	0	
508	508	00000000	0	1	0	0	
509	509	3F2F008A	0	1	0	0	
510	510	00000000	0	1	0	0	
511	511	00000000	0	1	0	0	
512	512	00000000	0	1	0	0	
513	513	3F2F008A	0	1	0	0	
514	514	00000000	0	1	0	0	
515	515	00000000	0	1	0	0	
516	516	00000000	0	1	0	0	
517	517	3F2F008A	0	1	0	0	
518	518	00000000	0	1	0	0	
519	519	00000000	0	1	0	0	
520	520	00000000	0	1	0	0	
521	521	3F2F00B5	1	1	0	0	
522	522	3F2F00B5	0	1	0	0	
523	523	00000000	0	1	0	0	
524	524	00000000	0	1	0	0	
525	525	00000000	0	1	0	0	
526	526	3F2F00B5	0	1	0	0	
527	527	00000000	0	1	0	0	
528	528	00000000	0	1	0	0	
529	529	00000000	0	1	0	0	
530	530	3F2F00B5	0	1	0	0	
531	531	00000000	0	1	0	0	
532	532	00000000	0	1	0	0	
533	533	00000000	0	1	0	0	
534	534	3F2F00B5	0	1	0	0	
535	535	00000000	0	1	0	0	
536	536	00000000	0	1	0	0	
537	537	00000000	0	1	0	0	
538	538	3F2F008B	1	1	0	0	
539	539	3F2F008B	0	1	0	0	
540	540	00000000	0	1	0	0	
541	541	00000000	0	1	0	0	
542	542	00000000	0	1	0	0	
543	543	3F2F008B	0	1	0	0	
544	544	00000000	0	1	0	0	
545	545	00000000	0	1	0	0	
546	546	00000000	0	1	0	0	
547	547	3F2F008B	0	1	0	0	
548	548	00000000	0	1	0	0	
549	549	00000000	0	1	0	0	
550	550	00000000	0	1	0	0	
551	551	3F2F008B	0	1	0	0	
552	552	00000000	0	1	0	0	
553	553	00000000	0	1	0	0	
554	554	00000000	0	1	0	0	
555	555	3F2F006D	1	1	0	0	
556	556	3F2F006D	0	1	0	0	
557	557	00000000	0	1	0	0	
558	558	00000000	0	1	0	0	
559	559	00000000	0	1	0	0	
560	560	3F2F006D	0	1	0	0	
561	561	00000000	0	1	0	0	
562	562	00000000	0	1	0	0	
563	563	00000000	0	1	0	0	
564	564	3F2F006D	0	1	0	0	
565	565	00000000	0	1	0	0	
566	566	00000000	0	1	0	0	
567	567	00000000	0	1	0	0	
568	568	3F2F006D	0	1	0	0	
569	569	00000000	0	1	0	0	
570	570	00000000	0	1	0	0	
571	571	00000000	0	1	0	0	
572	572	3F2F006D	0	1	0	0	
573	573	00000000	0	1	0	0	
574	574	00000000	0	1	0	0	
575	575	00000000	0	1	0	0	
576	576	3F2F0090	1	1	0	0	
577	577	3F2F0090	0	1	0	0	
578	578	00000000	0	1	0	0	
579	579	00000000	0	1	0	0	
580	580	00000000	0	1	0	0	
581	581	3F2F0090	0	1	0	0	
582	582	00000000	0	1	0	0	
583	583	00000000	0	1	0	0	
584	584	00000000	0	1	0	0	
585	585	3F2F0090	0	1	0	0	
586	586	00000000	0	1	0	0	
587	587	00000000	0	1	0	0	
588	588	00000000	0	1	0	0	
589	589	3F2F0090	0	1	0	0	
590	590	00000000	0	1	0	0	
591	591	00000000	0	1	0	0	
592	592	00000000	0	1	0	0	
593	593	3F2F00DC	1	1	0	0	
594	594	3F2F00DC	0	1	0	0	
595	595	00000000	0	1	0	0	
596	596	00000000	0	1	0	0	
597	597	00000000	0	1	0	0	
598	598	3F2F00DC	0	1	0	0	
599	599	00000000	0	1	0	0	
600	600	00000000	0	1	0	0	
601	601	00000000	0	1	0	0	
602	602	3F2F00DC	0	1	0	0	
603	603	00000000	0	1	0	0	
604	604	00000000	0	1	0	0	
605	605	00000000	0	1	0	0	
606	606	3F2F00DC	0	1	0	0	
607	607	00000000	0	1	0	0	
608	608	00000000	0	1	0	0	
609	609	00000000	0	1	0	0	
610	610	3F2F00DC	0	1	0	0	
611	611	00000000	0	1	0	0	
612	612	00000000	0	1	0	0	
613	613	00000000	0	1	0	0	
614	614	3F2F00DC	0	1	0	0	
615	615	00000000	0	1	0	0	
616	616	00000000	0	1	0	0	
617	617	00000000	0	1	0	0	
618	618	3F2F008F	1	1	0	0	
619	619	3F2F008F	0	1	0	0	
620	620	00000000	0	1	0	0	
621	621	00000000	0	1	0	0	
622	622	00000000	0	1	0	0	
623	623	3F2F008F	0	1	0	0	
624	624	00000000	0	1	0	0	
625	625	00000000	0	1	0	0	
626	626	00000000	0	1	0	0	
627	627	3F2F008F	0	1	0	0	
628	628	00000000	0	1	0	0	
629	629	00000000	0	1	0	0	
630	630	00000000	0	1	0	0	
631	631	3F2F008F	0	1	0	0	
632	632	00000000	0	1	0	0	
633	633	00000000	0	1	0	0	
634	634	00000000	0	1	0	0	
635	635	3F2F0067	1	1	0	0	
636	636	3F2F0067	0	1	0	0	
637	637	00000000	0	1	0	0	
638	638	00000000	0	1	0	0	
639	639	00000000	0	1	0	0	
640	640	3F2F0067	0	1	0	0	
641	641	00000000	0	1	0	0	
642	642	00000000	0	1	0	0	
643	643	00000000	0	1	0	0	
644	644	3F2F0067	0	1	0	0	
645	645	00000000	0	1	0	0	
646	646	00000000	0	1	0	0	
647	647	00000000	0	1	0	0	
648	648	3F2F0067	0	1	0	0	
649	649	00000000	0	1	0	0	
650	650	00000000	0	1	0	0	
651	651	00000000	0	1	0	0	
652	652	3F2F008C	1	1	0	0	
653	653	3F2F008C	0	1	0	0	
654	654	00000000	0	1	0	0	
655	655	00000000	0	1	0	0	
656	656	00000000	0	1	0	0	
657	657	3F2F008C	0	1	0	0	
658	658	00000000	0	1	0	0	
659	659	00000000	0	1	0	0	
660	660	00000000	0	1	0	0	
661	661	3F2F008C	0	1	0	0	
662	662	00000000	0	1	0	0	
663	663	00000000	0	1	0	0	
664	664	00000000	0	1	0	0	
665	665	3F2F008C	0	1	0	0	
666	666	00000000	0	1	0	0	
667	667	00000000	0	1	0	0	
668	668	00000000	0	1	0	0	
669	669	3F2F006C	1	1	0	0	
670	670	3F2F006C	0	1	0	0	
671	671	00000000	0	1	0	0	
672	672	00000000	0	1	0	0	
673	673	00000000	0	1	0	0	
674	674	3F2F006C	0	1	0	0	
675	675	00000000	0	1	0	0	
676	676	00000000	0	1	0	0	
677	677	00000000	0	1	0	0	
678	678	3F2F006C	0	1	0	0	
679	679	00000000	0	1	0	0	
680	680	00000000	0	1	0	0	
681	681	00000000	0	1	0	0	
682	682	3F2F006C	0	1	0	0	
683	683	00000000	0	1	0	0	
684	684	00000000	0	1	0	0	
685	685	00000000	0	1	0	0	
686	686	3F2F006C	0	1	0	0	
687	687	00000000	0	1	0	0	
688	688	00000000	0	1	0	0	
689	689	00000000	0	1	0	0	
690	690	3F2F0083	1	1	0	0	
691	691	3F2F0083	0	1	0	0	
692	692	00000000	0	1	0	0	
693	693	00000000	0	1	0	0	
694	694	00000000	0	1	0	0	
695	695	3F2F0083	0	1	0	0	
696	696	00000000	0	1	0	0	
697	697	00000000	0	1	0	0	
698	698	00000000	0	1	0	0	
699	699	3F2F0083	0	1	0	0	
700	700	00000000	0	1	0	0	
701	701	00000000	0	1	0	0	
702	702	00000000	0	1	0	0	
703	703	3F2F0083	0	1	0	0	
704	704	00000000	0	1	0	0	
705	705	00000000	0	1	0	0	
706	706	00000000	0	1	0	0	
707	707	3F2F00D7	1	1	0	0	
708	708	3F2F00D7	0	1	0	0	
709	709	00000000	0	1	0	0	
710	710	00000000	0	1	0	0	
711	711	00000000	0	1	0	0	
712	712	3F2F00D7	0	1	0	0	
713	713	00000000	0	1	0	0	
714	714	00000000	0	1	0	0	
715	715	00000000	0	1	0	0	
716	716	3F2F00D7	0	1	0	0	
717	717	00000000	0	1	0	0	
718	718	00000000	0	1	0	0	
719	719	00000000	0	1	0	0	
720	720	3F2F00D7	0	1	0	0	
721	721	00000000	0	1	0	0	
722	722	00000000	0	1	0	0	
723	723	00000000	0	1	0	0	
724	724	3F2F0068	1	1	0	0	
725	725	3F2F0068	0	1	0	0	
726	726	00000000	0	1	0	0	
727	727	00000000	0	1	0	0	
728	728	00000000	0	1	0	0	
729	729	3F2F0068	0	1	0	0	
730	730	00000000	0	1	0	0	
731	731	00000000	0	1	0	0	
732	732	00000000	0	1	0	0	
733	733	3F2F0068	0	1	0	0	
734	734	00000000	0	1	0	0	
735	735	00000000	0	1	0	0	
736	736	00000000	0	1	0	0	
737	737	3F2F0068	0	1	0	0	
738	738	00000000	0	1	0	0	
739	739	00000000	0	1	0	0	
740	740	00000000	0	1	0	0	
741	741	3F2F008E	1	1	0	0	
742	742	3F2F008E	0	1	0	0	
743	743	00000000	0	1	0	0	
744	744	00000000	0	1	0	0	
745	745	00000000	0	1	0	0	
746	746	3F2F008E	0	1	0	0	
747	747	00000000	0	1	0	0	
748	748	00000000	0	1	0	0	
749	749	00000000	0	1	0	0	
750	750	3F2F008E	0	1	0	0	
751	751	00000000	0	1	0	0	
752	752	00000000	0	1	0	0	
753	753	00000000	0	1	0	0	
754	754	3F2F008E	0	1	0	0	
755	755	00000000	0	1	0	0	
756	756	00000000	0	1	0	0	
757	757	00000000	0	1	0	0	
758	758	3F2F008E	0	1	0	0	
759	759	00000000	0	1	0	0	
760	760	00000000	0	1	0	0	
761	761	00000000	0	1	0	0	
762	762	3F2F008D	1	1	0	0	
763	763	3F2F008D	0	1	0	0	
764	764	00000000	0	1	0	0	
765	765	00000000	0	1	0	0	
766	766	00000000	0	1	0	0	
767	767	3F2F008D	0	1	0	0	
768	768	00000000	0	1	0	0	
769	769	00000000	0	1	0	0	
770	770	00000000	0	1	0	0	
771	771	3F2F008D	0	1	0	0	
772	772	00000000	0	1	0	0	
773	773	00000000	0	1	0	0	
